
**** 05/04/20 11:44:25 ****** PSpice Lite (October 2012) ****** ID# 10813 ****

 ** Profile: "SCHEMATIC1-dischargeTest"  [ c:\users\taylorrc\documents\dischargingcircuit-pspicefiles\schematic1\dischargetest.sim ] 


 ****     CIRCUIT DESCRIPTION


******************************************************************************




** Creating circuit file "dischargeTest.cir" 
** WARNING: THIS AUTOMATICALLY GENERATED FILE MAY BE OVERWRITTEN BY SUBSEQUENT SIMULATIONS

*Libraries: 
* Profile Libraries :
* Local Libraries :
.LIB "C:/Cadence/SPB_16.6/tools/pspice/library/opamp.lib" 
* From [PSPICE NETLIST] section of C:\SPB_Data\cdssetup\OrCAD_PSpice/16.6.0/PSpice.ini file:
.lib "nomd.lib" 

*Analysis directives: 
.TRAN  0 40 0 0.01 
.OPTIONS ADVCONV
.PROBE64 V(alias(*)) I(alias(*)) W(alias(*)) D(alias(*)) NOISE(alias(*)) 
.INC "..\SCHEMATIC1.net" 



**** INCLUDING SCHEMATIC1.net ****
* source DISCHARGINGCIRCUIT
C_C1         N17969 0 12 IC=12
R_R5         0 N17969  100k TC=0,0 
X_U1         N17969 N19242 N19260 LM317
R_R7         N19242 N19260  1k TC=0,0 
R_R8         0 N19242  4.7k TC=0,0 
C_C2         0 N19260 1n' 
I_I1         N19260 0 DC 1

**** RESUMING dischargeTest.cir ****
.END

**** 05/04/20 11:44:25 ****** PSpice Lite (October 2012) ****** ID# 10813 ****

 ** Profile: "SCHEMATIC1-dischargeTest"  [ c:\users\taylorrc\documents\dischargingcircuit-pspicefiles\schematic1\dischargetest.sim ] 


 ****     Diode MODEL PARAMETERS


******************************************************************************




               X_U1.DMOD       
          IS   30.000000E-15 
           N    1.701        


**** 05/04/20 11:44:25 ****** PSpice Lite (October 2012) ****** ID# 10813 ****

 ** Profile: "SCHEMATIC1-dischargeTest"  [ c:\users\taylorrc\documents\dischargingcircuit-pspicefiles\schematic1\dischargetest.sim ] 


 ****     BJT MODEL PARAMETERS


******************************************************************************




               X_U1.QPASSMOD   
               NPN             
       LEVEL    1            
          IS   30.000000E-15 
          BF   50            
          NF    1.701        
         VAF    1.5          
          BR    1            
          NR    1            
         ISS    0            
          RE    0            
          RC    0            
         CJE    0            
         VJE     .75         
         CJC    0            
         VJC     .75         
         MJC     .33         
        XCJC    1            
         CJS    0            
         VJS     .75         
          KF    0            
          AF    1            
          CN    2.42         
           D     .87         


**** 05/04/20 11:44:25 ****** PSpice Lite (October 2012) ****** ID# 10813 ****

 ** Profile: "SCHEMATIC1-dischargeTest"  [ c:\users\taylorrc\documents\dischargingcircuit-pspicefiles\schematic1\dischargetest.sim ] 


 ****     Junction FET MODEL PARAMETERS


******************************************************************************




               X_U1.JADJMOD    
               NJF             
         VTO   -1            
        BETA   50.000000E-06 


**** 05/04/20 11:44:25 ****** PSpice Lite (October 2012) ****** ID# 10813 ****

 ** Profile: "SCHEMATIC1-dischargeTest"  [ c:\users\taylorrc\documents\dischargingcircuit-pspicefiles\schematic1\dischargetest.sim ] 


 ****     INITIAL TRANSIENT SOLUTION       TEMPERATURE =   27.000 DEG C


******************************************************************************



 NODE   VOLTAGE     NODE   VOLTAGE     NODE   VOLTAGE     NODE   VOLTAGE


(N17969)   11.9980 (N19242)    6.0934 (N19260)    7.3398 (X_U1.4)    7.3434     

(X_U1.5)    8.6731 (X_U1.6)    9.7885 (X_U1.7)    9.7972 (X_U1.8)    7.6940     

(X_U1.9)    7.6940 (X_U1.10)    7.6940                   (X_U1.11)   16.3870    

(X_U1.12)   13.9410                   (X_U1.13)   10.6280                       

(X_U1.15)    8.6731                   




    VOLTAGE SOURCE CURRENTS
    NAME         CURRENT

    X_U1.VREF   -3.541E-11

    TOTAL POWER DISSIPATION   4.43E-11  WATTS



          JOB CONCLUDED

**** 05/04/20 11:44:25 ****** PSpice Lite (October 2012) ****** ID# 10813 ****

 ** Profile: "SCHEMATIC1-dischargeTest"  [ c:\users\taylorrc\documents\dischargingcircuit-pspicefiles\schematic1\dischargetest.sim ] 


 ****     JOB STATISTICS SUMMARY


******************************************************************************



  Total job time (using Solver 1)   =         .25
