
**** 05/04/20 13:35:05 ****** PSpice Lite (October 2012) ****** ID# 10813 ****

 ** Profile: "SCHEMATIC1-bias"  [ c:\users\taylorrc\documents\testingcircuit-pspicefiles\schematic1\bias.sim ] 


 ****     CIRCUIT DESCRIPTION


******************************************************************************




** Creating circuit file "bias.cir" 
** WARNING: THIS AUTOMATICALLY GENERATED FILE MAY BE OVERWRITTEN BY SUBSEQUENT SIMULATIONS

*Libraries: 
* Profile Libraries :
* Local Libraries :
.LIB "C:/Cadence/SPB_16.6/tools/pspice/library/irf.lib" 
.LIB "C:/Cadence/SPB_16.6/tools/pspice/library/opamp.lib" 
.LIB "C:/Cadence/SPB_16.6/tools/pspice/library/ebipolar.lib" 
.LIB "C:/Cadence/RHIT_Libraries/RHIT_Libraries/Class.lib" 
* From [PSPICE NETLIST] section of C:\SPB_Data\cdssetup\OrCAD_PSpice/16.6.0/PSpice.ini file:
.lib "nomd.lib" 

*Analysis directives: 
.TRAN  0 180 0 0.01 
.OPTIONS ADVCONV
.PROBE64 V(alias(*)) I(alias(*)) W(alias(*)) D(alias(*)) NOISE(alias(*)) 
.INC "..\SCHEMATIC1.net" 



**** INCLUDING SCHEMATIC1.net ****
* source TESTINGCIRCUIT
X_U1         N15097 CHARGE N14717 0 N14967 0 LM311
X_M1         N14760 N14967 CHARGE IRFZ44N
X_U2         N14717 N14776 N14760 LM317
V_V1         N14717 0  DC 18
R_R1         N14776 N14760  1k TC=0,0 
R_R2         0 N14776  10k TC=0,0 
R_R3         N14717 N15097  10k TC=0,0 
R_R4         N15097 0  20k TC=0,0 
R_R5         N14717 N14967  1k TC=0,0 
R_R8         N14967 0  10k TC=0,0 
C_C2         N14760 0 1n 
C_C3         CHARGE 0 12 IC=0
D_D1         N22894 0 MEH_LED 
R_R11         N22894 N14717  1.8k TC=0,0 
** Floating/unmodeled pin fixups **
R__UC0001   0  0   {1/GMIN}

**** RESUMING bias.cir ****
.END

**** 05/04/20 13:35:05 ****** PSpice Lite (October 2012) ****** ID# 10813 ****

 ** Profile: "SCHEMATIC1-bias"  [ c:\users\taylorrc\documents\testingcircuit-pspicefiles\schematic1\bias.sim ] 


 ****     Diode MODEL PARAMETERS


******************************************************************************




               MEH_LED         X_U1.dx         X_M1.MD         X_M1.MD1        
          IS    1.100000E-12  800.000000E-18  964.634900E-15    0            
           N    1.9                             1.01377        50            
         ISR   30.000000E-09                                                 
          NR    3.8                                                          
         IKF     .03                                                         
          BV                                   55                            
         IBV                                  250.000000E-06                 
          RS     .66                            9.676890E-03                 
          TT                                  100.000000E-09                 
         CJO                                    1.393530E-09    1.528750E-09 
          VJ     .75                             .5              .5          
           M     .34                             .42532          .584414     
          FC                                                   10.000000E-09 
          EG                                    1.08658                      
         XTI                                    2.9994                       


               X_M1.MD2        X_M1.MD3        X_U2.DMOD       
          IS  100.000000E-12  100.000000E-12   30.000000E-15 
           N     .408752         .408752        1.701        
          RS    3.000000E-06                                 


**** 05/04/20 13:35:05 ****** PSpice Lite (October 2012) ****** ID# 10813 ****

 ** Profile: "SCHEMATIC1-bias"  [ c:\users\taylorrc\documents\testingcircuit-pspicefiles\schematic1\bias.sim ] 


 ****     BJT MODEL PARAMETERS


******************************************************************************




               X_U1.qin        X_U1.qmi        X_U1.qmo        X_U1.qoc        
               PNP             NPN             NPN             NPN             
       LEVEL    1               1               1               1            
          IS  800.000000E-18  800.000000E-18  800.000000E-18  800.000000E-18 
          BF  500               1.002000E+03    1.000000E+03  206.900000E+03 
          NF    1               1               1               1            
          BR    1               1               1               1            
          NR    1               1               1               1            
         ISS    0               0               0               0            
          RE    0               0               0               0            
          RC    0               0               0               0            
         CJE    0               0               0               0            
         VJE     .75             .75             .75             .75         
         CJC    0               0               1.000000E-15    1.000000E-15 
         VJC     .75             .75             .75             .75         
         MJC     .33             .33             .33             .33         
        XCJC    1               1               1               1            
         CJS    0               0               0               0            
         VJS     .75             .75             .75             .75         
          TF                                                    7.855000E-12 
          TR                                  124.200000E-09   83.830000E-09 
          KF    0               0               0               0            
          AF    1               1               1               1            
          CN    2.2             2.42            2.42            2.42         
           D     .52             .87             .87             .87         


               X_U2.QPASSMOD   
               NPN             
       LEVEL    1            
          IS   30.000000E-15 
          BF   50            
          NF    1.701        
         VAF    1.5          
          BR    1            
          NR    1            
         ISS    0            
          RE    0            
          RC    0            
         CJE    0            
         VJE     .75         
         CJC    0            
         VJC     .75         
         MJC     .33         
        XCJC    1            
         CJS    0            
         VJS     .75         
          KF    0            
          AF    1            
          CN    2.42         
           D     .87         


**** 05/04/20 13:35:05 ****** PSpice Lite (October 2012) ****** ID# 10813 ****

 ** Profile: "SCHEMATIC1-bias"  [ c:\users\taylorrc\documents\testingcircuit-pspicefiles\schematic1\bias.sim ] 


 ****     Junction FET MODEL PARAMETERS


******************************************************************************




               X_U2.JADJMOD    
               NJF             
         VTO   -1            
        BETA   50.000000E-06 


**** 05/04/20 13:35:05 ****** PSpice Lite (October 2012) ****** ID# 10813 ****

 ** Profile: "SCHEMATIC1-bias"  [ c:\users\taylorrc\documents\testingcircuit-pspicefiles\schematic1\bias.sim ] 


 ****     MOSFET MODEL PARAMETERS


******************************************************************************




               X_M1.MM         
               NMOS            
       LEVEL    1            
           L  100.000000E-06 
           W  100.000000E-06 
         VTO    3.56214      
          KP   39.3974       
       GAMMA    0            
         PHI     .6          
      LAMBDA    0            
          IS    0            
          JS    0            
          PB     .8          
        PBSW     .8          
          CJ    0            
        CJSW    0            
        CGSO   12.525500E-06 
        CGDO  228.260000E-09 
        CGBO    0            
         TOX    0            
          XJ    0            
       UCRIT   10.000000E+03 
      DIOMOD    1            
         VFB    0            
        LETA    0            
        WETA    0            
          U0    0            
        TEMP    0            
         VDD    5            
       XPART    0            


**** 05/04/20 13:35:05 ****** PSpice Lite (October 2012) ****** ID# 10813 ****

 ** Profile: "SCHEMATIC1-bias"  [ c:\users\taylorrc\documents\testingcircuit-pspicefiles\schematic1\bias.sim ] 


 ****     INITIAL TRANSIENT SOLUTION       TEMPERATURE =   27.000 DEG C


******************************************************************************



 NODE   VOLTAGE     NODE   VOLTAGE     NODE   VOLTAGE     NODE   VOLTAGE


(CHARGE)     .0032 (N14717)   18.0000 (N14760)     .0277 (N14776)     .0706     

(N14967)   16.3640 (N15097)   12.0000 (N22894)    1.1237 (X_M1.4)    0.0000     

(X_M1.5)    -.2728 (X_M1.6)    -.2728 (X_M1.7)   16.3640 (X_M1.8)     .0244     

(X_M1.9)     .0275 (X_U1.7)    1.1140 (X_U1.8)     .6503 (X_U1.9)     .0179     

(X_U2.4)    1.3206 (X_U2.5)    1.3116 (X_U2.6)    1.6756 (X_U2.7)   10.4950     

(X_U2.8)    1.5361 (X_U2.9)  129.3200 (X_M1.10)  -16.3360                       

(X_M1.11)    -.2728                   (X_U1.10)     .0179                       

(X_U1.11)     .0179                   (X_U1.21)   12.4500                       

(X_U1.22)     .4532                   (X_U2.10)    1.4084                       

(X_U2.11)    1.9613                   (X_U2.12)     .2100                       

(X_U2.13)   16.6100                   (X_U2.15)    1.3116                   




    VOLTAGE SOURCE CURRENTS
    NAME         CURRENT

    V_V1        -1.603E+00
    X_U1.vi1    -1.246E-11
    X_U1.vi2     1.996E-07
    X_U1.v1     -1.635E-11
    X_M1.VFI2   -2.728E-13
    X_M1.VFI1    0.000E+00
    X_U2.VREF   -1.293E-08

    TOTAL POWER DISSIPATION   2.89E+01  WATTS

Reducing minimum delta to make the circuit converge.
Reducing minimum delta to make the circuit converge.
Reducing minimum delta to make the circuit converge.
Reducing minimum delta to make the circuit converge.
Reducing minimum delta to make the circuit converge.
Reducing minimum delta to make the circuit converge.

INTERNAL ERROR -- Divide by Zero, Divide

ABORTING SIMULATION
**** 05/04/20 13:35:05 ****** PSpice Lite (October 2012) ****** ID# 10813 ****

 ** Profile: "SCHEMATIC1-bias"  [ c:\users\taylorrc\documents\testingcircuit-pspicefiles\schematic1\bias.sim ] 


 ****     JOB STATISTICS SUMMARY


******************************************************************************



Node counts:
  Top level (NUNODS)                =           8
  External (NCNODS)                 =          34
  Total (NUMNOD)                    =          37

Total device count (NUMEL)          =          61
  Capacitors (C)                    =           5
  Diodes (D)                        =          10
  VCVS (E)                          =           6
  CCCS (F)                          =           3
  Current Sources (I)               =           1
  JFETs (J)                         =           1
  MosFETs (M)                       =           1
  BJTs (Q)                          =           6
  Resistors (R)                     =          21
  Voltage Sources (V)               =           7

Number of subcircuits (X)           =           3

Matrix statistics:
  Matrix size (NSTOP)               =          50
  Initial no. elements (NTTAR)      =         184
  No. elements w/ fillin (NTTBR)    =         242
  No. fillins (IFILL)               =          58
  No. overflows (NTTOV)             =         226
  No. LU operations (IOPS)          =         321
  Percent sparsity (PERSPA)         =      90.320

Analysis statistics:
  No. total time points (NUMTTP)    =       12950
  No. rejected time points (NUMRTP) =        1621
  No. iterations (NUMNIT)           =       60157

Load Threads                        =           6

Runtime statistics:                       Seconds      Iterations
  Matrix load                       =        1.28
  Matrix solution                   =         .14               3
  Readin                            =        0.00
  General setup                     =        0.00
  CMI setup                     =        0.00
  Setup                             =        0.00
  DC sweep                          =        0.00               0
  Bias point                        =        0.00              28
  AC and noise                      =        0.00               0
  Total transient analysis          =        0.00
  Output                            =        0.00
  Overhead                          =        0.00
  Total job time (using Solver 1)   =        1.77
